!Murata Part Number: GRM2165C2A103GA01
!These Parameters are Measured in Series Mode Connection
!       o--ll--o
!Port1            Port2
!       o------o
!Operation Temp=25[degC], DC Bias Voltage=0[V]
!Freq. Start=1[MHz] Stop=6[GHz], 401[Steps]
!Data Generated on Mar 5, 2019
# Hz S RI R 50
!Freq.(Hz) S11(Real) S11(Imag) S21(Real) S21(Imag) S12(Real) S12(Imag) S22(Real) S22(Imag)
1000000.0 0.024736948838086262 -0.1551216107642791 0.9752630511619138 0.1551216107642791 0.9752630511619138 0.1551216107642791 0.024736948838086262 -0.1551216107642791
1021987.0156634536 0.02371131064796268 -0.15194241469265807 0.9762886893520374 0.15194241469265807 0.9762886893520374 0.15194241469265807 0.02371131064796268 -0.15194241469265807
1044457.4601846923 0.02272731597028057 -0.1488218128787151 0.9772726840297195 0.1488218128787151 0.9772726840297195 0.1488218128787151 0.02272731597028057 -0.1488218128787151
1067421.9627215841 0.021783355026741787 -0.1457591308880268 0.9782166449732582 0.1457591308880268 0.9782166449732582 0.1457591308880268 0.021783355026741787 -0.1457591308880268
1090891.386135458 0.02087787363888584 -0.14275367477601267 0.9791221263611143 0.14275367477601267 0.9791221263611143 0.14275367477601267 0.02087787363888584 -0.14275367477601267
1114876.832129545 0.020009371860300183 -0.13980473335385127 0.9799906281396997 0.13980473335385127 0.9799906281396997 0.13980473335385127 0.020009371860300183 -0.13980473335385127
1139389.6465003989 0.019176402593071126 -0.13691158031794973 0.9808235974069288 0.13691158031794973 0.9808235974069288 0.13691158031794973 0.019176402593071126 -0.13691158031794973
1164441.4245047802 0.01837757019425331 -0.13407347624875776 0.9816224298057467 0.13407347624875776 0.9816224298057467 0.13407347624875776 0.01837757019425331 -0.13407347624875776
1190044.0163445412 0.01761152907758055 -0.13128967048464818 0.9823884709224197 0.13128967048464818 0.9823884709224197 0.13128967048464818 0.01761152907758055 -0.13128967048464818
1216209.5327721077 0.016876982315124342 -0.12855940287649828 0.9831230176848759 0.12855940287649828 0.9831230176848759 0.12855940287649828 0.016876982315124342 -0.12855940287649828
1242950.3508192098 0.016172680243123468 -0.1258819054284977 0.9838273197568764 0.1258819054284977 0.9838273197568764 0.1258819054284977 0.016172680243123468 -0.1258819054284977
1270279.119651567 0.01549741907576031 -0.12325640383058574 0.9845025809242397 0.12325640383058574 0.9845025809242397 0.12325640383058574 0.01549741907576031 -0.12325640383058574
1298208.7665523042 0.014850039530243608 -0.12068211888778713 0.9851499604697566 0.12068211888778713 0.9851499604697566 0.12068211888778713 0.014850039530243608 -0.12068211888778713
1326752.5030369225 0.01422942546617217 -0.11815826785156668 0.9857705745338278 0.11815826785156668 0.9857705745338278 0.11815826785156668 0.01422942546617217 -0.11815826785156668
1355923.8311027219 0.013634502541798797 -0.11568406565817325 0.9863654974582012 0.11568406565817325 0.9863654974582012 0.11568406565817325 0.013634502541798797 -0.11568406565817325
1385736.5496156274 0.013064236889485221 -0.11325872607877929 0.9869357631105149 0.11325872607877929 0.9869357631105149 0.11325872607877929 0.013064236889485221 -0.11325872607877929
1416204.7608374464 0.012517633812337768 -0.11088146278606226 0.9874823661876624 0.11088146278606226 0.9874823661876624 0.11088146278606226 0.012517633812337768 -0.11088146278606226
1447342.877096637 0.011993736503735995 -0.10855149034170379 0.9880062634962642 0.10855149034170379 0.9880062634962642 0.10855149034170379 0.011993736503735995 -0.10855149034170379
1479165.6276057488 0.011491624791212815 -0.10626802510911498 0.9885083752087872 0.10626802510911498 0.9885083752087872 0.10626802510911498 0.011491624791212815 -0.10626802510911498
1511688.0654287587 0.011010413905912895 -0.1040302860955274 0.9889895860940874 0.1040302860955274 0.9889895860940874 0.1040302860955274 0.011010413905912895 -0.1040302860955274
1544925.574601597 0.010549253278643958 -0.10183749572741882 0.989450746721356 0.10183749572741882 0.989450746721356 0.10183749572741882 0.010549253278643958 -0.10183749572741882
1578893.8774092323 0.010107325363343595 -0.09968888056307869 0.9898926746366565 0.09968888056307869 0.9898926746366565 0.09968888056307869 0.010107325363343595 -0.09968888056307869
1613609.04182276 0.00968384448860867 -0.09758367194594882 0.9903161555113914 0.09758367194594882 0.9903161555113914 0.09758367194594882 0.00968384448860867 -0.09758367194594882
1649087.4891000076 0.00927805573777657 -0.09552110660221705 0.9907219442622235 0.09552110660221705 0.9907219442622235 0.09552110660221705 0.00927805573777657 -0.09552110660221705
1685346.001553255 0.00888923385790402 -0.09350042718597805 0.9911107661420959 0.09350042718597805 0.9911107661420959 0.09350042718597805 0.00888923385790402 -0.09350042718597805
1722401.7304877453 0.008516682197860826 -0.09152088277512398 0.9914833178021389 0.09152088277512398 0.9914833178021389 0.09152088277512398 0.008516682197860826 -0.09152088277512398
1760272.2043147392 0.008159731675639784 -0.08958172932097341 0.9918402683243603 0.08958172932097341 0.9918402683243603 0.08958172932097341 0.008159731675639784 -0.08958172932097341
1798975.3368429495 0.007817739774880712 -0.08768223005450113 0.9921822602251191 0.08768223005450113 0.9921822602251191 0.08768223005450113 0.007817739774880712 -0.08768223005450113
1838529.4357522824 0.007490089570514398 -0.08582165585188954 0.9925099104294857 0.08582165585188954 0.9925099104294857 0.08582165585188954 0.007490089570514398 -0.08582165585188954
1878953.211253888 0.007176188783349832 -0.08399928556198265 0.9928238112166503 0.08399928556198265 0.9928238112166503 0.08399928556198265 0.007176188783349832 -0.08399928556198265
1920265.784940624 0.006875468863356244 -0.08221440629809282 0.9931245311366437 0.08221440629809282 0.9931245311366437 0.08221440629809282 0.006875468863356244 -0.08221440629809282
1962486.6988321077 0.00658738410132728 -0.08046631369648109 0.9934126158986726 0.08046631369648109 0.9934126158986726 0.08046631369648109 0.00658738410132728 -0.08046631369648109
2005635.9246186486 0.006311410768559091 -0.07875431214370841 0.9936885892314409 0.07875431214370841 0.9936885892314409 0.07875431214370841 0.006311410768559091 -0.07875431214370841
2049733.8731084245 0.006047046284125773 -0.07707771497493786 0.9939529537158741 0.07707771497493786 0.9939529537158741 0.07707771497493786 0.006047046284125773 -0.07707771497493786
2094801.403882371 0.005793808409293805 -0.07543584464515389 0.9942061915907063 0.07543584464515389 0.9942061915907063 0.07543584464515389 0.005793808409293805 -0.07543584464515389
2140859.835161357 0.005551234468581504 -0.07382803287515577 0.9944487655314184 0.07382803287515577 0.9944487655314184 0.07382803287515577 0.005551234468581504 -0.07382803287515577
2187930.9538903087 0.005318880596939536 -0.07225362077407921 0.9946811194030605 0.07225362077407921 0.9946811194030605 0.07225362077407921 0.005318880596939536 -0.07225362077407921
2236037.02604405 0.0050963210125033985 -0.0707119589401002 0.9949036789874964 0.0707119589401002 0.9949036789874964 0.0707119589401002 0.0050963210125033985 -0.0707119589401002
2285200.8071597433 0.004883147314348435 -0.06920240754088111 0.9951168526856514 0.06920240754088111 0.9951168526856514 0.06920240754088111 0.004883147314348435 -0.06920240754088111
2335445.553100901 0.004678967804661581 -0.06772433637522855 0.9953210321953382 0.06772433637522855 0.9953210321953382 0.06772433637522855 0.004678967804661581 -0.06772433637522855
2386795.031058074 0.004483406834731421 -0.06627712491734636 0.9955165931652685 0.06627712491734636 0.9955165931652685 0.06627712491734636 0.004483406834731421 -0.06627712491734636
2439273.530791401 0.004296104174149037 -0.06486016234498616 0.995703895825851 0.06486016234498616 0.995703895825851 0.06486016234498616 0.004296104174149037 -0.06486016234498616
2492905.876120359 0.00411671440260579 -0.06347284755271969 0.9958832855973943 0.06347284755271969 0.9958832855973943 0.06347284755271969 0.00411671440260579 -0.06347284755271969
2547717.4366661333 0.003944906323670709 -0.062114589151483046 0.9960550936763292 0.062114589151483046 0.9960550936763292 0.062114589151483046 0.003944906323670709 -0.062114589151483046
2603734.139852166 0.0037803623999291634 -0.06078480545547462 0.9962196376000709 0.06078480545547462 0.9962196376000709 0.06078480545547462 0.0037803623999291634 -0.06078480545547462
2660982.4831685643 0.0036227782088653487 -0.059482924457419664 0.9963772217911345 0.059482924457419664 0.9963772217911345 0.059482924457419664 0.0036227782088653487 -0.059482924457419664
2719489.5467061675 0.003471861918874311 -0.058208383793154544 0.9965281380811255 0.058208383793154544 0.9965281380811255 0.058208383793154544 0.003471861918874311 -0.058208383793154544
2779283.0059661944 0.003327333784793574 -0.056960630696421585 0.9966726662152067 0.056960630696421585 0.9966726662152067 0.056960630696421585 0.003327333784793574 -0.056960630696421585
2840391.144951544 0.0031889256623508317 -0.055739121944711284 0.9968110743376493 0.055739121944711284 0.9968110743376493 0.055739121944711284 0.0031889256623508317 -0.055739121944711284
2902842.8695459287 0.003056380540931263 -0.05454332379693402 0.9969436194590688 0.05454332379693402 0.9969436194590688 0.05454332379693402 0.003056380540931263 -0.05454332379693402
2966667.72118718 0.0029294520940767034 -0.053372711923653865 0.9970705479059232 0.053372711923653865 0.9970705479059232 0.053372711923653865 0.0029294520940767034 -0.053372711923653865
3031895.8908411846 0.0028079042471382738 -0.052226771330569646 0.9971920957528618 0.052226771330569646 0.9971920957528618 0.052226771330569646 0.0028079042471382738 -0.052226771330569646
3098558.233283071 0.002691510761514342 -0.05110499627588327 0.9973084892384859 0.05110499627588327 0.9973084892384859 0.05110499627588327 0.002691510761514342 -0.05110499627588327
3166686.281692389 0.002580054834916634 -0.050006890182153464 0.9974199451650835 0.050006890182153464 0.9974199451650835 0.050006890182153464 0.002580054834916634 -0.050006890182153464
3236312.2625692035 0.0024733287171188594 -0.04893196554319303 0.9975266712828811 0.04893196554319303 0.9975266712828811 0.04893196554319303 0.0024733287171188594 -0.04893196554319303
3307469.1109781396 0.0023711333406541573 -0.047879743826530194 0.9976288666593459 0.047879743826530194 0.9976288666593459 0.047879743826530194 0.0023711333406541573 -0.047879743826530194
3380190.486127605 0.002273277965940102 -0.046849755371919675 0.9977267220340598 0.046849755371919675 0.9977267220340598 0.046849755371919675 0.002273277965940102 -0.046849755371919675
3454510.787291549 0.0021795798403225768 -0.04584153928635531 0.9978204201596773 0.04584153928635531 0.9978204201596773 0.04584153928635531 0.0021795798403225768 -0.04584153928635531
3530465.1700812983 0.00208986387054274 -0.0448546433360049 0.9979101361294572 0.0448546433360049 0.9979101361294572 0.0448546433360049 0.00208986387054274 -0.0448546433360049
3608089.563075153 0.002003962308144306 -0.0438886238354591 0.9979960376918557 0.0438886238354591 0.9979960376918557 0.0438886238354591 0.002003962308144306 -0.0438886238354591
3687420.6848136308 0.0019217144473514408 -0.0429430455346576 0.9980782855526484 0.0429430455346576 0.9980782855526484 0.0429430455346576 0.0019217144473514408 -0.0429430455346576
3768496.0611683712 0.0018429663349606835 -0.042017481503830396 0.9981570336650392 0.042017481503830396 0.9981570336650392 0.042017481503830396 0.0018429663349606835 -0.042017481503830396
3851354.0430929437 0.001767570491803441 -0.04111151301676765 0.9982324295081968 0.04111151301676765 0.9982324295081968 0.04111151301676765 0.001767570491803441 -0.04111151301676765
3936033.8247639337 0.001695385645348575 -0.04022472943270805 0.9983046143546515 0.04022472943270805 0.9983046143546515 0.04022472943270805 0.001695385645348575 -0.04022472943270805
4022575.4621209023 0.0016262764730276206 -0.03935672807711494 0.9983737235269724 0.03935672807711494 0.9983737235269724 0.03935672807711494 0.0016262764730276206 -0.03935672807711494
4111019.891813979 0.001560113355877914 -0.03850711412158848 0.998439886644122 0.03850711412158848 0.998439886644122 0.03850711412158848 0.001560113355877914 -0.03850711412158848
4201408.950568062 0.0014967721421115842 -0.03767550046314355 0.9985032278578884 0.03767550046314355 0.9985032278578884 0.03767550046314355 0.0014967721421115842 -0.03767550046314355
4293785.394972777 0.001436133920230845 -0.03686150760306543 0.9985638660797692 0.03686150760306543 0.9985638660797692 0.03686150760306543 0.001436133920230845 -0.03686150760306543
4388192.921707552 0.0013780848013222595 -0.036064763525538265 0.9986219151986778 0.036064763525538265 0.9986219151986778 0.036064763525538265 0.0013780848013222595 -0.036064763525538265
4484676.188211391 0.001322515710174711 -0.03528490357622611 0.9986774842898253 0.03528490357622611 0.9986774842898253 0.03528490357622611 0.001322515710174711 -0.03528490357622611
4583280.833807113 0.0012693221848776065 -0.034521570340971273 0.9987306778151224 0.034521570340971273 0.9987306778151224 0.034521570340971273 0.0012693221848776065 -0.034521570340971273
4684053.501290036 0.0012184041845674353 -0.033774413524761564 0.9987815958154326 0.033774413524761564 0.9987815958154326 0.033774413524761564 0.0012184041845674353 -0.033774413524761564
4787041.858991356 0.001169665905002045 -0.033043089831104266 0.998830334094998 0.033043089831104266 0.998830334094998 0.033043089831104266 0.001169665905002045 -0.033043089831104266
4892294.623326608 0.001123015601653155 -0.03232726284193403 0.9988769843983468 0.03232726284193403 0.9988769843983468 0.03232726284193403 0.001123015601653155 -0.03232726284193403
4999861.581839919 0.0010783654200182675 -0.03162660289816895 0.9989216345799817 0.03162660289816895 0.9989216345799817 0.03162660289816895 0.0010783654200182675 -0.03162660289816895
5109793.616754934 0.0010356312328637753 -0.030940786981019933 0.9989643687671362 0.030940786981019933 0.9989643687671362 0.030940786981019933 0.0010356312328637753 -0.030940786981019933
5222142.729043541 9.947324841212302E-4 -0.030269498594147955 0.9990052675158789 0.030269498594147955 0.9990052675158789 0.030269498594147955 9.947324841212302E-4 -0.030269498594147955
5336962.063023812 9.555920391687203E-4 -0.029612427646754362 0.9990444079608312 0.029612427646754362 0.9990444079608312 0.029612427646754362 9.555920391687203E-4 -0.029612427646754362
5454305.931498774 9.181360412390428E-4 -0.028969270337681527 0.999081863958761 0.028969270337681527 0.999081863958761 0.028969270337681527 9.181360412390428E-4 -0.028969270337681527
5574229.841447907 8.82293773705741E-4 -0.02833972904059203 0.9991177062262943 0.02833972904059203 0.9991177062262943 0.02833972904059203 8.82293773705741E-4 -0.02833972904059203
5696790.520283512 8.479975280073029E-4 -0.027723512190287812 0.9991520024719925 0.027723512190287812 0.9991520024719925 0.027723512190287812 8.479975280073029E-4 -0.027723512190287812
5822045.942684401 8.151824769787068E-4 -0.027120334170223255 0.9991848175230215 0.027120334170223255 0.9991848175230215 0.027120334170223255 8.151824769787068E-4 -0.027120334170223255
5950055.3580195485 7.83786553368199E-4 -0.02652991520125963 0.9992162134466317 0.02652991520125963 0.9992162134466317 0.02652991520125963 7.83786553368199E-4 -0.02652991520125963
6080879.31837474 7.537503333255769E-4 -0.025951981231701976 0.9992462496666744 0.025951981231701976 0.9992462496666744 0.025951981231701976 7.537503333255769E-4 -0.025951981231701976
6214579.707195417 7.250169246564943E-4 -0.025386263828653947 0.9992749830753435 0.025386263828653947 0.9992749830753435 0.025386263828653947 7.250169246564943E-4 -0.025386263828653947
6351219.768559305 6.975318596452322E-4 -0.02483250007072063 0.9993024681403547 0.02483250007072063 0.9993024681403547 0.02483250007072063 6.975318596452322E-4 -0.02483250007072063
6490864.137092655 6.712429922561316E-4 -0.024290432442084082 0.9993287570077438 0.024290432442084082 0.9993287570077438 0.024290432442084082 6.712429922561316E-4 -0.024290432442084082
6633578.86854426 6.461003995314325E-4 -0.023759808727972013 0.9993538996004685 0.023759808727972013 0.9993538996004685 0.023759808727972013 6.461003995314325E-4 -0.023759808727972013
6779431.471031698 6.220562870105674E-4 -0.023240381911535143 0.9993779437129895 0.023240381911535143 0.9993779437129895 0.023240381911535143 6.220562870105674E-4 -0.023240381911535143
6928490.936974583 5.990648980031213E-4 -0.022731910072145204 0.9994009351019968 0.022731910072145204 0.9994009351019968 0.022731910072145204 5.990648980031213E-4 -0.022731910072145204
7080827.77572994 5.770824265545878E-4 -0.02223415628512121 0.9994229175734454 0.02223415628512121 0.9994229175734454 0.02223415628512121 5.770824265545878E-4 -0.02223415628512121
7236514.046945133 5.560669339508529E-4 -0.021746888522888527 0.9994439330660493 0.021746888522888527 0.9994439330660493 0.021746888522888527 5.560669339508529E-4 -0.021746888522888527
7395623.394644118 5.359782686139065E-4 -0.021269879557571616 0.9994640217313859 0.021269879557571616 0.9994640217313859 0.021269879557571616 5.359782686139065E-4 -0.021269879557571616
7558231.082063163 5.167779892477536E-4 -0.020802906865018803 0.9994832220107521 0.020802906865018803 0.9994832220107521 0.020802906865018803 5.167779892477536E-4 -0.020802906865018803
7724414.027252486 4.98429291099741E-4 -0.02034575253025403 0.9995015707089004 0.02034575253025403 0.9995015707089004 0.02034575253025403 4.98429291099741E-4 -0.02034575253025403
7894250.839460687 4.808969352086747E-4 -0.019898203154348603 0.9995191030647914 0.019898203154348603 0.9995191030647914 0.019898203154348603 4.808969352086747E-4 -0.019898203154348603
8067821.8563191425 4.641471805170768E-4 -0.01946004976270346 0.9995358528194828 0.01946004976270346 0.9995358528194828 0.01946004976270346 4.641471805170768E-4 -0.01946004976270346
8245209.181843984 4.481477187307583E-4 -0.0190310877147302 0.9995518522812692 0.0190310877147302 0.9995518522812692 0.0190310877147302 4.481477187307583E-4 -0.0190310877147302
8426496.72527364 4.328676118146101E-4 -0.01861111661491771 0.9995671323881854 0.01861111661491771 0.9995671323881854 0.01861111661491771 4.328676118146101E-4 -0.01861111661491771
8611770.240760274 4.182772320190575E-4 -0.01819994022526953 0.9995817227679806 0.01819994022526953 0.9995817227679806 0.01819994022526953 4.182772320190575E-4 -0.01819994022526953
8801117.367933933 4.0434820433704773E-4 -0.01779736637909545 0.9995956517956628 0.01779736637909545 0.9995956517956628 0.01779736637909545 4.0434820433704773E-4 -0.01779736637909545
8994627.673358591 3.9105335129671956E-4 -0.017403206896140055 0.9996089466487033 0.017403206896140055 0.9996089466487033 0.017403206896140055 3.9105335129671956E-4 -0.017403206896140055
9192392.692899661 3.7836664000004665E-4 -0.017017277499030155 0.99962163336 0.017017277499030155 0.99962163336 0.017017277499030155 3.7836664000004665E-4 -0.017017277499030155
9394505.975023063 3.662631313227017E-4 -0.016639397731021775 0.9996337368686773 0.016639397731021775 0.9996337368686773 0.016639397731021775 3.662631313227017E-4 -0.016639397731021775
9601063.125046303 3.547189311952341E-4 -0.01626939087502767 0.9996452810688049 0.01626939087502767 0.9996452810688049 0.01626939087502767 3.547189311952341E-4 -0.01626939087502767
9812161.850362506 3.4371114389028826E-4 -0.015907083873905586 0.9996562888561097 0.015907083873905586 0.9996562888561097 0.015907083873905586 3.4371114389028826E-4 -0.015907083873905586
1.0027902006658768E7 3.3321782724507075E-4 -0.015552307251987902 0.999666782172755 0.015552307251987902 0.999666782172755 0.015552307251987902 3.3321782724507075E-4 -0.015552307251987902
1.0248385645150753E7 3.232179497525429E-4 -0.015204895037833127 0.9996767820502475 0.015204895037833127 0.9996767820502475 0.015204895037833127 3.232179497525429E-4 -0.015204895037833127
