! CL05B103KB5NNN Multilayer Ceramic Capacitor Sparameter Model
!-----------------------------------------------------------------------------------------------
! Model Generated by Samsung Electro-Mechanics
! Samsung Sparameter Version 5.0
! Date : Oct-21-2025
! Products : Multilayer Ceramic Capacitor(General)
!-----------------------------------------------------------------------------------------------
! Characteristics :
!
!     Nominal Capacitance = 10nF
!     Capacitance Tolerance = +/-10%
!     TCC = X7R(-55 ~ +125 degC.)
!     Rated Voltage = 50Vdc
!     Size = 0402(unit:inch), 1005(unit:mm)
!     Length = 1.00+/-0.05mm
!     Width = 0.50+/-0.05mm
!     Thickness = 0.50+/-0.05mm
!     Reliability level = Standard
!     Lineup = Lineup Normal
!     Feature = Features Normal
!     Measurement Temperature : 25degC.
!     DC bias Value = 0V
!     Frequency : 100Hz ~ 6GHz
!-----------------------------------------------------------------------------------------------
! External Node Assignments :
!
!  1  o---||---o  2
!
!-----------------------------------------------------------------------------------------------
# MHz S RI R 50.0
! Freq.  Real(S11)  Im(S11)  Real(S12)  Im(S12)  Real(S21)  Im(S21)  Real(S22)  Im(S22)
1.0E-4	0.9999891283032459	-0.0006384670474521671	0.00001087169675404321	0.0006384670474521671	0.00001087169675404321	0.0006384670474521671	0.9999891283032459	-0.0006384670474521671
1.061729498647108E-4	0.999988341862787	-0.0006773866966927692	0.00001165813721314913	0.0006773866966927692	0.00001165813721314913	0.0006773866966927692	0.999988341862787	-0.0006773866966927692
1.1272695282974394E-4	0.9999875119538972	-0.0007186700365398739	0.00001248804610260178	0.0007186700365398739	0.00001248804610260178	0.0007186700365398739	0.9999875119538972	-0.0007186700365398739
1.1968553111194022E-4	0.9999866379100903	-0.0007624624705051367	0.00001336208990970519	0.0007624624705051367	0.00001336208990970519	0.0007624624705051367	0.9999866379100903	-0.0007624624705051367
1.2707365894279313E-4	0.999985718802167	-0.0008089187888232475	0.00001428119783293986	0.0008089187888232475	0.00001428119783293986	0.0008089187888232475	0.999985718802167	-0.0008089187888232475
1.3491785220058549E-4	0.9999847532981638	-0.0008582037141426484	0.00001524670183613281	0.0008582037141426484	0.00001524670183613281	0.0008582037141426484	0.9999847532981638	-0.0008582037141426484
1.4324626357547222E-4	0.9999837395186545	-0.0009104924517726672	0.00001626048134535102	0.0009104924517726672	0.00001626048134535102	0.0009104924517726672	0.9999837395186545	-0.0009104924517726672
1.5208878360905762E-4	0.9999826748944668	-0.0009659712459051289	0.00001732510553317043	0.0009659712459051289	0.00001732510553317043	0.0009659712459051289	0.9999826748944668	-0.0009659712459051289
1.6147714797109324E-4	0.9999815560338046	-0.0010248379453585738	0.00001844396619535682	0.0010248379453585738	0.00001844396619535682	0.0010248379453585738	0.9999815560338046	-0.0010248379453585738
1.7144505135831373E-4	0.9999803786051159	-0.0010873025843892768	0.0000196213948841644	0.0010873025843892768	0.0000196213948841644	0.0010873025843892768	0.9999803786051159	-0.0010873025843892768
1.820282684241901E-4	0.9999791372408929	-0.0011535879857890341	0.00002086275910719766	0.0011535879857890341	0.00002086275910719766	0.0011535879857890341	0.9999791372408929	-0.0011535879857890341
1.9326478217361655E-4	0.9999778254661402	-0.001223930394730028	0.00002217453385974403	0.001223930394730028	0.00002217453385974403	0.001223930394730028	0.9999778254661402	-0.001223930394730028
2.0519492028333645E-4	0.9999764356536585	-0.0012985801525926162	0.00002356434634155045	0.0012985801525926162	0.00002356434634155045	0.0012985801525926162	0.9999764356536585	-0.0012985801525926162
2.178614998373603E-4	0.9999749590067518	-0.0013778024203752056	0.0000250409932481166	0.0013778024203752056	0.0000250409932481166	0.0013778024203752056	0.9999749590067518	-0.0013778024203752056
2.3130998099682757E-4	0.9999733855685919	-0.001461877961347325	0.00002661443140814027	0.001461877961347325	0.00002661443140814027	0.001461877961347325	0.9999733855685919	-0.001461877961347325
2.455886301558338E-4	0.9999717042562787	-0.0015511039925044413	0.00002829574372132732	0.0015511039925044413	0.00002829574372132732	0.0015511039925044413	0.9999717042562787	-0.0015511039925044413
2.607486931687835E-4	0.9999699029166346	-0.0016457951142411409	0.00003009708336544654	0.0016457951142411409	0.00003009708336544654	0.0016457951142411409	0.9999699029166346	-0.0016457951142411409
2.7684457927098106E-4	0.9999679683998232	-0.0017462843275613932	0.00003203160017688532	0.0017462843275613932	0.00003203160017688532	0.0017462843275613932	0.9999679683998232	-0.0017462843275613932
2.9393405635254826E-4	0.999965886645915	-0.0018529241481091989	0.00003411335408489917	0.0018529241481091989	0.00003411335408489917	0.0018529241481091989	0.999965886645915	-0.0018529241481091989
3.120784582865019E-4	0.9999636427783851	-0.0019660878262763378	0.0000363572216150434	0.0019660878262763378	0.0000363572216150434	0.0019660878262763378	0.9999636427783851	-0.0019660878262763378
3.3134290505509E-4	0.999961221197144	-0.0020861706825032965	0.00003877880285605012	0.0020861706825032965	0.00003877880285605012	0.0020861706825032965	0.999961221197144	-0.0020861706825032965
3.5179653646441703E-4	0.9999586056620744	-0.0022135915664612395	0.00004139433792565358	0.0022135915664612395	0.00004139433792565358	0.0022135915664612395	0.9999586056620744	-0.0022135915664612395
3.7351276028615456E-4	0.9999557793561953	-0.00234879444789108	0.00004422064380478752	0.00234879444789108	0.00004422064380478752	0.00234879444789108	0.9999557793561953	-0.00234879444789108
3.9656951571691664E-4	0.999952724915735	-0.0024922501453012195	0.00004727508426505366	0.0024922501453012195	0.00004727508426505366	0.0024922501453012195	0.999952724915735	-0.0024922501453012195
4.210495531008484E-4	0.9999494244127783	-0.002644458196372075	0.00005057558722170337	0.002644458196372075	0.00005057558722170337	0.002644458196372075	0.9999494244127783	-0.002644458196372075
4.470407309193526E-4	0.9999458592751423	-0.002805948870776427	0.00005414072485774283	0.002805948870776427	0.00005414072485774283	0.002805948870776427	0.9999458592751423	-0.002805948870776427
4.74636331113841E-4	0.9999420101280933	-0.0029772853223437776	0.00005798987190679195	0.0029772853223437776	0.00005798987190679195	0.0029772853223437776	0.9999420101280933	-0.0029772853223437776
5.039353938732011E-4	0.9999378565437905	-0.0031590658733897103	0.00006214345620948714	0.0031590658733897103	0.00006214345620948714	0.0031590658733897103	0.9999378565437905	-0.0031590658733897103
5.350430730875267E-4	0.99993337668716	-0.003351926420079412	0.00006662331283997012	0.003351926420079412	0.00006662331283997012	0.003351926420079412	0.99993337668716	-0.003351926420079412
5.680710137438283E-4	0.9999285468513042	-0.003556542944497268	0.00007145314869597218	0.003556542944497268	0.00007145314869597218	0.003556542944497268	0.9999285468513042	-0.003556542944497268
6.031377526181892E-4	0.9999233408813318	-0.0037736341172890948	0.000076659118668226	0.0037736341172890948	0.000076659118668226	0.0037736341172890948	0.9999233408813318	-0.0037736341172890948
6.403691437024535E-4	0.9999177294921713	-0.004003963974887454	0.00008227050782878842	0.004003963974887454	0.00008227050782878842	0.004003963974887454	0.9999177294921713	-0.004003963974887454
6.798988098922838E-4	0.9999116794927926	-0.004248344657785764	0.0000883205072075207	0.004248344657785764	0.0000883205072075207	0.004248344657785764	0.9999116794927926	-0.004248344657785764
7.218686225576998E-4	0.9999051529355032	-0.0045076392011607555	0.0000948470644968318	0.0045076392011607555	0.0000948470644968318	0.0045076392011607555	0.9999051529355032	-0.0045076392011607555
7.66429210717265E-4	0.9998981062137356	-0.004782764376085049	0.00010189378626427557	0.004782764376085049	0.00010189378626427557	0.004782764376085049	0.9998981062137356	-0.004782764376085049
8.137405016433406E-4	0.9998904891343708	-0.005074693588042405	0.00010951086562912283	0.005074693588042405	0.00010951086562912283	0.005074693588042405	0.9998904891343708	-0.005074693588042405
8.639722948386301E-4	0.999882243990742	-0.005384459848666318	0.00011775600925799115	0.005384459848666318	0.00011775600925799115	0.005384459848666318	0.999882243990742	-0.005384459848666318
9.173048714440101E-4	0.9998733046600037	-0.005713158845718479	0.00012669533999655288	0.005713158845718479	0.00012669533999655288	0.005713158845718479	0.9998733046600037	-0.005713158845718479
9.739296412647988E-4	0.9998635957438062	-0.006061952144556268	0.0001364042561936621	0.006061952144556268	0.0001364042561936621	0.006061952144556268	0.9998635957438062	-0.006061952144556268
0.0010340498297376325	0.9998530317647252	-0.006432070561192829	0.00014696823527491213	0.006432070561192829	0.00014696823527491213	0.006432070561192829	0.9998530317647252	-0.006432070561192829
0.0010978812073034639	0.9998415164232165	-0.006824817752309579	0.0001584835767835311	0.006824817752309579	0.0001584835767835311	0.006824817752309579	0.9998415164232165	-0.006824817752309579
0.0011656528638043897	0.9998289419116028	-0.007241574071303505	0.0001710580883972569	0.007241574071303505	0.0001710580883972569	0.007241574071303505	0.9998289419116028	-0.007241574071303505
0.0012376080306836003	0.9998151882729847	-0.007683800741896632	0.00018481172701529698	0.007683800741896632	0.00018481172701529698	0.007683800741896632	0.9998151882729847	-0.007683800741896632
0.0013140049539393335	0.9998001227841874	-0.008153044402315361	0.00019987721581260224	0.008153044402315361	0.00019987721581260224	0.008153044402315361	0.9998001227841874	-0.008153044402315361
0.0013951178209658248	0.999783599332653	-0.008650942073777292	0.00021640066734706278	0.008650942073777292	0.00021640066734706278	0.008650942073777292	0.999783599332653	-0.008650942073777292
0.0014812377446076926	0.9997654577472942	-0.009179226606997784	0.0002345422527058016	0.009179226606997784	0.0002345422527058016	0.009179226606997784	0.9997654577472942	-0.009179226606997784
0.0015726738079594985	0.9997455230323651	-0.009739732659339194	0.0002544769676348187	0.009739732659339194	0.0002544769676348187	0.009739732659339194	0.9997455230323651	-0.009739732659339194
0.0016697541736602763	0.9997236044411935	-0.010334403252463813	0.0002763955588064398	0.010334403252463813	0.0002763955588064398	0.010334403252463813	0.9997236044411935	-0.010334403252463813
0.0017728272616642413	0.9996994943132829	-0.010965296955077742	0.0003005056867172239	0.010965296955077742	0.0003005056867172239	0.010965296955077742	0.9996994943132829	-0.010965296955077742
0.0018822629997147003	0.9996729665844005	-0.011634595726656906	0.0003270334155994034	0.011634595726656906	0.0003270334155994034	0.011634595726656906	0.9996729665844005	-0.011634595726656906
0.0019984541510090904	0.999643774865921	-0.012344613445161084	0.00035622513407881744	0.012344613445161084	0.00035622513407881744	0.012344613445161084	0.999643774865921	-0.012344613445161084
0.0021218177238201135	0.9996116499784528	-0.013097805124311983	0.0003883500215472961	0.013097805124311983	0.0003883500215472961	0.013097805124311983	0.9996116499784528	-0.013097805124311983
0.002252796468132077	0.9995762968175598	-0.01389677680434037	0.0004237031824401889	0.01389677680434037	0.0004237031824401889	0.01389677680434037	0.9995762968175598	-0.01389677680434037
0.0023918604646638456	0.9995373904281099	-0.014744296075363103	0.0004626095718901303	0.014744296075363103	0.0004626095718901303	0.014744296075363103	0.9995373904281099	-0.014744296075363103
0.0025395088119813834	0.9994945711699988	-0.015643303166822674	0.0005054288300011046	0.015643303166822674	0.0005054288300011046	0.015643303166822674	0.9994945711699988	-0.015643303166822674
0.0026962714177549067	0.9994474388725013	-0.016596922512599744	0.0005525611274987459	0.016596922512599744	0.0005525611274987459	0.016596922512599744	0.9994474388725013	-0.016596922512599744
0.0028627109005894447	0.9993955458967813	-0.017608474682834836	0.0006044541032187071	0.017608474682834836	0.0006044541032187071	0.017608474682834836	0.9993955458967813	-0.017608474682834836
0.0030394246092544422	0.9993383890543105	-0.018681488563409995	0.0006616109456895496	0.018681488563409995	0.0006616109456895496	0.018681488563409995	0.9993383890543105	-0.018681488563409995
0.0032270467665594044	0.9992754003597579	-0.019819713664928434	0.0007245996402421238	0.019819713664928434	0.0007245996402421238	0.019819713664928434	0.9992754003597579	-0.019819713664928434
0.003426250745569887	0.9992059366260477	-0.021027132455979546	0.0007940633739521635	0.021027132455979546	0.0007940633739521635	0.021027132455979546	0.9992059366260477	-0.021027132455979546
0.003637751486333196	0.9991292679320272	-0.022307972639772466	0.0008707320679728375	0.022307972639772466	0.0008707320679728375	0.022307972639772466	0.9991292679320272	-0.022307972639772466
0.0038623080617873166	0.9990445650053683	-0.023666719326268116	0.0009554349946318662	0.023666719326268116	0.0009554349946318662	0.023666719326268116	0.9990445650053683	-0.023666719326268116
0.004100726402062135	0.9989508855620475	-0.025108127089624267	0.001049114437952537	0.025108127089624267	0.001049114437952537	0.025108127089624267	0.9989508855620475	-0.025108127089624267
0.004353862186950389	0.9988471596279502	-0.026637231938174338	0.0011528403720496984	0.026637231938174338	0.0011528403720496984	0.026637231938174338	0.9988471596279502	-0.026637231938174338
0.004622623916929439	0.9987321738388215	-0.02825936325649761	0.0012678261611784875	0.02825936325649761	0.0012678261611784875	0.02825936325649761	0.9987321738388215	-0.02825936325649761
0.004907976173755622	0.9986045546746005	-0.029980155802618667	0.0013954453253995811	0.029980155802618667	0.0013954453253995811	0.029980155802618667	0.9986045546746005	-0.029980155802618667
0.005210943082333509	0.9984627505368103	-0.031805561855858436	0.0015372494631896829	0.031805561855858436	0.0015372494631896829	0.031805561855858436	0.9984627505368103	-0.031805561855858436
0.005532611986284573	0.9983050125269141	-0.033741863612055355	0.0016949874730858177	0.033741863612055355	0.0016949874730858177	0.033741863612055355	0.9983050125269141	-0.033741863612055355
0.0058741373504068994	0.998129373732393	-0.03579568591412533	0.0018706262676070867	0.03579568591412533	0.0018706262676070867	0.03579568591412533	0.998129373732393	-0.03579568591412533
0.0062367449040317685	0.9979336267773035	-0.037974009389583584	0.002066373222696552	0.037974009389583584	0.002066373222696552	0.037974009389583584	0.9979336267773035	-0.037974009389583584
0.006621736040147555	0.9977152993450091	-0.040284184045275125	0.0022847006549909553	0.040284184045275125	0.0022847006549909553	0.040284184045275125	0.9977152993450091	-0.040284184045275125
0.00703049248607935	0.9974716273307108	-0.04273394334501856	0.00252837266928932	0.04273394334501856	0.00252837266928932	0.04273394334501856	0.9974716273307108	-0.04273394334501856
0.007464481262487288	0.9971995252271019	-0.045331418768601923	0.00280047477289812	0.045331418768601923	0.00280047477289812	0.045331418768601923	0.9971995252271019	-0.045331418768601923
0.00792525994848136	0.9968955532840308	-0.048085154818984115	0.003104446715969227	0.048085154818984115	0.003104446715969227	0.048085154818984115	0.9968955532840308	-0.048085154818984115
0.008414482271749119	0.9965558809087915	-0.051004124404725945	0.0034441190912083987	0.051004124404725945	0.0034441190912083987	0.051004124404725945	0.9965558809087915	-0.051004124404725945
0.008933904043759181	0.9961762456850344	-0.054097744470323623	0.003823754314965659	0.054097744470323623	0.003823754314965659	0.054097744470323623	0.9961762456850344	-0.054097744470323623
0.009485389461341805	0.9957519072848559	-0.05737589166985623	0.004248092715144109	0.05737589166985623	0.004248092715144109	0.05737589166985623	0.9957519072848559	-0.05737589166985623
0.010070917797263008	0.9952775954330689	-0.060848917769384434	0.004722404566931233	0.060848917769384434	0.004722404566931233	0.060848917769384434	0.9952775954330689	-0.060848917769384434
0.010692590503804267	0.9947474509614593	-0.0645276643105624	0.005252549038540638	0.0645276643105624	0.005252549038540638	0.0645276643105624	0.9947474509614593	-0.0645276643105624
0.011352638754842955	0.9941549588749338	-0.06842347586266223	0.005845041125066172	0.06842347586266223	0.005845041125066172	0.06842347586266223	0.9941549588749338	-0.06842347586266223
0.012053431453501117	0.9934928722560405	-0.07254821092600773	0.006507127743959465	0.07254821092600773	0.006507127743959465	0.07254821092600773	0.9934928722560405	-0.07254821092600773
0.01279748373410305	0.9927531257782798	-0.07691424922459628	0.0072468742217202025	0.07691424922459628	0.0072468742217202025	0.07691424922459628	0.9927531257782798	-0.07691424922459628
0.013587465988953749	0.9919267376026859	-0.08153449374347184	0.008073262397314068	0.08153449374347184	0.008073262397314068	0.08153449374347184	0.9919267376026859	-0.08153449374347184
0.014426213452336495	0.991003698516745	-0.08642236543843605	0.008996301483255097	0.08642236543843605	0.008996301483255097	0.08642236543843605	0.991003698516745	-0.08642236543843605
0.015316736376125392	0.98997284735672	-0.09159178809002871	0.010027152643280022	0.09159178809002871	0.010027152643280022	0.09159178809002871	0.98997284735672	-0.09159178809002871
0.016262230833533536	0.9888217320444372	-0.09705716031385328	0.011178267955562775	0.09705716031385328	0.011178267955562775	0.09705716031385328	0.9888217320444372	-0.09705716031385328
0.0172660901897711	0.9875364559696688	-0.10283331130073765	0.012463544030331196	0.10283331130073765	0.012463544030331196	0.10283331130073765	0.9875364559696688	-0.10283331130073765
0.018331917280781422	0.9861015099528307	-0.10893543646631539	0.013898490047169202	0.10893543646631539	0.013898490047169202	0.10893543646631539	0.9861015099528307	-0.10893543646631539
0.019463537343764315	0.9844995906164506	-0.1153790088573212	0.015500409383549433	0.1153790088573212	0.015500409383549433	0.1153790088573212	0.9844995906164506	-0.1153790088573212
0.020665011745894146	0.9827114066620778	-0.12217966189860749	0.01728859333792215	0.12217966189860749	0.01728859333792215	0.12217966189860749	0.9827114066620778	-0.12217966189860749
0.02194065256050484	0.980715475280013	-0.1293530388678971	0.019284524719986942	0.1293530388678971	0.019284524719986942	0.1293530388678971	0.980715475280013	-0.1293530388678971
0.023295038043055136	0.9784879117103591	-0.1369146043445271	0.021512088289640893	0.1369146043445271	0.021512088289640893	0.1369146043445271	0.9784879117103591	-0.1369146043445271
0.02473302906241829	0.9760022158381187	-0.14487941278262606	0.023997784161881246	0.14487941278262606	0.023997784161881246	0.14487941278262606	0.9760022158381187	-0.14487941278262606
0.026259786546465668	0.9732290606712805	-0.15326182930433715	0.026770939328719517	0.15326182930433715	0.026770939328719517	0.15326182930433715	0.9732290606712805	-0.15326182930433715
0.027880790004559123	0.9701360886616486	-0.1620751978076135	0.029863911338351392	0.1620751978076135	0.029863911338351392	0.1620751978076135	0.9701360886616486	-0.1620751978076135
0.029601857193425795	0.9666877231330774	-0.17133145157318327	0.0333122768669227	0.17133145157318327	0.0333122768669227	0.17133145157318327	0.9666877231330774	-0.17133145157318327
0.031429164996999326	0.9628450036268843	-0.1810406618041956	0.03715499637311561	0.1810406618041956	0.03715499637311561	0.1810406618041956	0.9628450036268843	-0.1810406618041956
0.03336927159516126	0.9585654557902507	-0.19121052003872493	0.04143454420974939	0.19121052003872493	0.04143454420974939	0.19121052003872493	0.9585654557902507	-0.19121052003872493
0.035429140000949814	0.9538030085227587	-0.2018457512676572	0.04619699147724134	0.2018457512676572	0.04619699147724134	0.2018457512676572	0.9538030085227587	-0.2018457512676572
