!Murata Part Number: GRM011R60G103KE01
!These Parameters are Measured in Series Mode Connection
!       o--ll--o
!Port1            Port2
!       o------o
!Operation Temp=25[degC], DC Bias Voltage=0[V]
!Freq. Start=100[Hz] Stop=6[GHz], 401[Steps]
!Data Generated on Nov 6, 2018
# Hz S RI R 50
!Freq.(Hz) S11(Real) S11(Imag) S21(Real) S21(Imag) S12(Real) S12(Imag) S22(Real) S22(Imag)
100.0 0.9999919229455877 -5.651880806353546E-4 8.077054412334182E-6 5.651880806353546E-4 8.077054412334182E-6 5.651880806353546E-4 0.9999919229455877 -5.651880806353546E-4
104.57921513303334 0.9999916020611395 -5.908245717966249E-4 8.397938860471884E-6 5.908245717966249E-4 8.397938860471884E-6 5.908245717966249E-4 0.9999916020611395 -5.908245717966249E-4
109.3681223784127 0.9999912672090601 -6.176297412972569E-4 8.732790939916019E-6 6.176297412972569E-4 8.732790939916019E-6 6.176297412972569E-4 0.9999912672090601 -6.176297412972569E-4
114.3763239890794 0.999990917205237 -6.456566207422513E-4 9.082794762936144E-6 6.456566207422513E-4 9.082794762936144E-6 6.456566207422513E-4 0.999990917205237 -6.456566207422513E-4
119.61386192579457 0.9999905508328027 -6.749605860935505E-4 9.449167197277992E-6 6.749605860935505E-4 9.449167197277992E-6 6.749605860935505E-4 0.9999905508328027 -6.749605860935505E-4
125.09123799230618 0.999990166850572 -7.05599469800219E-4 9.833149428023775E-6 7.05599469800219E-4 9.833149428023775E-6 7.05599469800219E-4 0.999990166850572 -7.05599469800219E-4
130.8194348925486 0.9999897640010819 -7.376336798280782E-4 1.023599891791759E-5 7.376336798280782E-4 1.023599891791759E-5 7.376336798280782E-4 0.9999897640010819 -7.376336798280782E-4
136.8099382520969 0.9999893410179231 -7.711263258750494E-4 1.0658982076768581E-5 7.711263258750494E-4 1.0658982076768581E-5 7.711263258750494E-4 0.9999893410179231 -7.711263258750494E-4
143.0747596480305 0.9999888966320125 -8.061433530315288E-4 1.1103367987486655E-5 8.061433530315288E-4 1.1103367987486655E-5 8.061433530315288E-4 0.9999888966320125 -8.061433530315288E-4
149.6264606933842 0.9999884295764291 -8.427536831054008E-4 1.1570423570905207E-5 8.427536831054008E-4 1.1570423570905207E-5 8.427536831054008E-4 0.9999884295764291 -8.427536831054008E-4
156.47817822447783 0.9999879385894006 -8.810293637780371E-4 1.2061410599448768E-5 8.810293637780371E-4 1.2061410599448768E-5 8.810293637780371E-4 0.9999879385894006 -8.810293637780371E-4
163.643650641628 0.9999874224150138 -9.210457256914554E-4 1.257758498602354E-5 9.210457256914554E-4 1.257758498602354E-5 9.210457256914554E-4 0.9999874224150138 -9.210457256914554E-4
171.13724545605763 0.9999868798012258 -9.628815474899003E-4 1.3120198774238556E-5 9.628815474899003E-4 1.3120198774238556E-5 9.628815474899003E-4 0.9999868798012258 -9.628815474899003E-4
178.97398809823787 0.9999863094947655 -0.0010066192287553736 1.3690505234581427E-5 0.0010066192287553736 1.3690505234581427E-5 0.0010066192287553736 0.9999863094947655 -0.0010066192287553736
187.1695920454257 0.9999857102325752 -0.0010523449706917093 1.4289767424820121E-5 0.0010523449706917093 1.4289767424820121E-5 0.0010523449706917093 0.9999857102325752 -0.0010523449706917093
195.74049032880657 0.9999850807295004 -0.0011001489643326164 1.4919270499581424E-5 0.0011001489643326164 1.4919270499581424E-5 0.0011001489643326164 0.9999850807295004 -0.0011001489643326164
204.70386848341695 0.9999844196620462 -0.0011501255859837384 1.5580337953760286E-5 0.0011501255859837384 1.5580337953760286E-5 0.0011501255859837384 0.9999844196620462 -0.0011501255859837384
214.0776990069143 0.9999837256481404 -0.0012023735995653798 1.627435185960435E-5 0.0012023735995653798 1.627435185960435E-5 0.0012023735995653798 0.9999837256481404 -0.0012023735995653798
223.88077739628844 0.9999829972229869 -0.0012569963655089933 1.7002777013082146E-5 0.0012569963655089933 1.7002777013082146E-5 0.0012569963655089933 0.9999829972229869 -0.0012569963655089933
234.132759834772 0.999982232811251 -0.0013141020558829195 1.7767188749037045E-5 0.0013141020558829195 1.7767188749037045E-5 0.0013141020558829195 0.999982232811251 -0.0013141020558829195
244.85420260451448 0.9999814306959738 -0.0013738038754853993 1.8569304026205854E-5 0.0013738038754853993 1.8569304026205854E-5 0.0013738038754853993 0.9999814306959738 -0.0013738038754853993
256.06660330404856 0.9999805889847668 -0.0014362202887465707 1.9411015233198042E-5 0.0014362202887465707 1.9411015233198042E-5 0.0014362202887465707 0.9999805889847668 -0.0014362202887465707
267.792443953192 0.999979705573964 -0.001501475252423832 2.0294426035937542E-5 0.001501475252423832 2.0294426035937542E-5 0.001501475252423832 0.999979705573964 -0.001501475252423832
280.0552360718164 0.9999787781115141 -0.001569698454251081 2.1221888485874366E-5 0.001569698454251081 2.1221888485874366E-5 0.001569698454251081 0.9999787781115141 -0.001569698454251081
292.87956782286926 0.9999778039594556 -0.0016410255579038466 2.2196040544495318E-5 0.0016410255579038466 2.2196040544495318E-5 0.0016410255579038466 0.9999778039594556 -0.0016410255579038466
306.2911533141767 0.9999767801568415 -0.0017155984548587774 2.3219843158456407E-5 0.0017155984548587774 2.3219843158456407E-5 0.0017155984548587774 0.9999767801568415 -0.0017155984548587774
320.3168841578819 0.9999757033839571 -0.0017935655239462941 2.4296616042845455E-5 0.0017935655239462941 2.4296616042845455E-5 0.0017935655239462941 0.9999757033839571 -0.0017935655239462941
334.9848833909005 0.9999745699286039 -0.0018750818996087367 2.5430071396087175E-5 0.0018750818996087367 2.5430071396087175E-5 0.0018750818996087367 0.9999745699286039 -0.0018750818996087367
350.32456186451077 0.9999733756551258 -0.001960309750073421 2.6624344874251693E-5 0.001960309750073421 2.6624344874251693E-5 0.001960309750073421 0.9999733756551258 -0.001960309750073421
366.36667721614316 0.9999721159767119 -0.002049418566823951 2.7884023288256715E-5 0.002049418566823951 2.7884023288256715E-5 0.002049418566823951 0.9999721159767119 -0.002049418566823951
383.1433955416162 0.9999707858313535 -0.002142585466899389 2.9214168646730416E-5 0.002142585466899389 2.9214168646730416E-5 0.002142585466899389 0.9999707858313535 -0.002142585466899389
400.68835589147574 0.9999693796616578 -0.002239995509668365 3.062033834218728E-5 0.002239995509668365 3.062033834218728E-5 0.002239995509668365 0.9999693796616578 -0.002239995509668365
419.03673772076064 0.9999678913985383 -0.0023418420298150825 3.2108601461754836E-5 0.0023418420298150825 3.2108601461754836E-5 0.0023418420298150825 0.9999678913985383 -0.0023418420298150825
438.225331427439 0.9999663144486091 -0.0024483269883394695 3.368555139090925E-5 0.0024483269883394695 3.368555139090925E-5 0.0024483269883394695 0.9999663144486091 -0.0024483269883394695
458.2926121209498 0.9999646416849334 -0.002559661343418299 3.5358315066768156E-5 0.002559661343418299 3.5358315066768156E-5 0.002559661343418299 0.9999646416849334 -0.002559661343418299
479.2788167687661 0.9999628654405739 -0.002676065443001645 3.713455942602646E-5 0.002676065443001645 3.713455942602646E-5 0.002676065443001645 0.9999628654405739 -0.002676065443001645
501.22602487566456 0.999960977504217 -0.0027977694410319864 3.902249578316525E-5 0.0027977694410319864 3.902249578316525E-5 0.0027977694410319864 0.999960977504217 -0.0027977694410319864
524.1782428574726 0.99995896911693 -0.0029250137391720623 4.1030883069939315E-5 0.0029250137391720623 4.1030883069939315E-5 0.0029250137391720623 0.99995896911693 -0.0029250137391720623
548.1814922784702 0.9999568309689295 -0.003058049455910188 4.3169031070471655E-5 0.003058049455910188 4.3169031070471655E-5 0.003058049455910188 0.9999568309689295 -0.003058049455910188
573.2839021293739 0.9999545531950002 -0.0031971389248736733 4.544680499983984E-5 0.0031971389248736733 4.544680499983984E-5 0.0031971389248736733 0.9999545531950002 -0.0031971389248736733
599.5358053309263 0.9999521253670018 -0.003342556224115298 4.787463299814129E-5 0.003342556224115298 4.787463299814129E-5 0.003342556224115298 0.9999521253670018 -0.003342556224115298
626.9898396565933 0.999949536481656 -0.0034945877380363334 5.046351834400241E-5 0.0034945877380363334 5.046351834400241E-5 0.0034945877380363334 0.999949536481656 -0.0034945877380363334
655.7010532767296 0.9999467749415752 -0.003653532753463581 5.322505842491214E-5 0.003653532753463581 5.322505842491214E-5 0.003653532753463581 0.9999467749415752 -0.003653532753463581
685.7270151358366 0.999943828527274 -0.003819704091199715 5.61714727260338E-5 0.003819704091199715 5.61714727260338E-5 0.003819704091199715 0.999943828527274 -0.003819704091199715
717.1279303842347 0.9999406843577003 -0.003993428774111005 5.931564229964708E-5 0.003993428774111005 5.931564229964708E-5 0.003993428774111005 0.9999406843577003 -0.003993428774111005
749.9667610955984 0.9999373288366639 -0.004175048732503513 6.267116333609738E-5 0.004175048732503513 6.267116333609738E-5 0.004175048732503513 0.9999373288366639 -0.004175048732503513
784.3093525124082 0.999933747582446 -0.004364921547173457 6.625241755402582E-5 0.004364921547173457 6.625241755402582E-5 0.004364921547173457 0.999933747582446 -0.004364921547173457
820.2245650724522 0.9999299253378575 -0.004563421230111736 7.007466214251946E-5 0.004563421230111736 7.007466214251946E-5 0.004563421230111736 0.9999299253378575 -0.004563421230111736
857.7844124811068 0.9999258458580973 -0.0047709390424163275 7.415414190271791E-5 0.0047709390424163275 7.415414190271791E-5 0.0047709390424163275 0.9999258458580973 -0.0047709390424163275
897.0642061062428 0.9999214917739617 -0.0049878843485458985 7.850822603836258E-5 0.0049878843485458985 7.850822603836258E-5 0.0049878843485458985 0.9999214917739617 -0.0049878843485458985
938.1427059852851 0.9999168444282716 -0.0052146855056662686 8.315557172846293E-5 0.0052146855056662686 8.315557172846293E-5 0.0052146855056662686 0.9999168444282716 -0.0052146855056662686
981.102278747212 0.9999118836838148 -0.005451790786533693 8.811631618527625E-5 0.005451790786533693 8.811631618527625E-5 0.005451790786533693 0.9999118836838148 -0.005451790786533693
1026.0290627661395 0.9999065877016269 -0.005699669334161172 9.341229837316001E-5 0.005699669334161172 9.341229837316001E-5 0.005699669334161172 0.9999065877016269 -0.005699669334161172
1073.0131408776467 0.9999009326890338 -0.005958812146457974 9.906731096620376E-5 0.005958812146457974 9.906731096620376E-5 0.005958812146457974 0.9999009326890338 -0.005958812146457974
1122.1487210041523 0.9998948926175071 -0.0062297330891417455 1.0510738249297463E-4 0.0062297330891417455 1.0510738249297463E-4 0.0062297330891417455 0.9998948926175071 -0.0062297330891417455
1173.5343250515148 0.999888438910999 -0.006512969935509305 1.115610890010142E-4 0.006512969935509305 1.115610890010142E-4 0.006512969935509305 0.999888438910999 -0.006512969935509305
1227.2729864556143 0.9998815401059786 -0.006809085432114203 1.1845989402132533E-4 0.006809085432114203 1.1845989402132533E-4 0.006809085432114203 0.9998815401059786 -0.006809085432114203
1283.4724567750195 0.999874161484828 -0.007118668390018733 1.2583851517200957E-4 0.007118668390018733 1.2583851517200957E-4 0.007118668390018733 0.999874161484828 -0.007118668390018733
1342.245421743976 0.9998662646845481 -0.007442334802033714 1.3373531545185914E-4 0.007442334802033714 1.3373531545185914E-4 0.007442334802033714 0.9998662646845481 -0.007442334802033714
1403.7097272189235 0.9998578072828308 -0.00778072898718728 1.421927171690553E-4 0.00778072898718728 1.421927171690553E-4 0.00778072898718728 0.9998578072828308 -0.00778072898718728
1467.9886154715937 0.9998487423634576 -0.008134524764523879 1.5125763654227122E-4 0.008134524764523879 1.5125763654227122E-4 0.008134524764523879 0.9998487423634576 -0.008134524764523879
1535.2109723024755 0.9998390180627001 -0.008504426659174096 1.6098193729992098E-4 0.008504426659174096 1.6098193729992098E-4 0.008504426659174096 0.9998390180627001 -0.008504426659174096
1605.5115854701387 0.9998285770979295 -0.00889117114440743 1.714229020704337E-4 0.00889117114440743 1.714229020704337E-4 0.00889117114440743 0.9998285770979295 -0.00889117114440743
1679.0314149545911 0.9998173562790289 -0.009295527924045059 1.826437209710531E-4 0.009295527924045059 1.826437209710531E-4 0.009295527924045059 0.9998173562790289 -0.009295527924045059
1755.9178755965756 0.9998052860024756 -0.009718301260143307 1.9471399752427139E-4 0.009718301260143307 1.9471399752427139E-4 0.009718301260143307 0.9998052860024756 -0.009718301260143307
1836.3251326795319 0.9997922897271849 -0.010160331351252154 2.0771027281511515E-4 0.010160331351252154 2.0771027281511515E-4 0.010160331351252154 0.9997922897271849 -0.010160331351252154
1920.4144110468878 0.9997782834303937 -0.010622495766813256 2.217165696063457E-4 0.010622495766813256 2.217165696063457E-4 0.010622495766813256 0.9997782834303937 -0.010622495766813256
2008.3543183745 0.9997631750410836 -0.011105710943410048 2.368249589164079E-4 0.011105710943410048 2.368249589164079E-4 0.011105710943410048 0.9997631750410836 -0.011105710943410048
2100.321183246434 0.9997468638476878 -0.011610933748650354 2.53136152312031E-4 0.011610933748650354 2.53136152312031E-4 0.011610933748650354 0.9997468638476878 -0.011610933748650354
2196.4994087119585 0.999729239876137 -0.012139163118487674 2.7076012386308113E-4 0.012139163118487674 2.7076012386308113E-4 0.012139163118487674 0.999729239876137 -0.012139163118487674
2297.0818420326846 0.9997101832336439 -0.01269144177381129 2.8981676635607813E-4 0.01269144177381129 2.8981676635607813E-4 0.01269144177381129 0.9997101832336439 -0.01269144177381129
2402.270161361206 0.999689563413016 -0.013268858022193991 3.104365869840788E-4 0.013268858022193991 3.104365869840788E-4 0.013268858022193991 0.999689563413016 -0.013268858022193991
2512.2752801266033 0.999667238551643 -0.013872547650809001 3.327614483570052E-4 0.013872547650809001 3.327614483570052E-4 0.013872547650809001 0.999667238551643 -0.013872547650809001
2627.3177699376165 0.9996430546386487 -0.014503695916732836 3.5694536135127513E-4 0.014503695916732836 3.5694536135127513E-4 0.014503695916732836 0.9996430546386487 -0.014503695916732836
2747.6283028514745 0.9996168446629085 -0.015163539641142823 3.8315533709155095E-4 0.015163539641142823 3.8315533709155095E-4 0.015163539641142823 0.9996168446629085 -0.015163539641142823
2873.4481138951564 0.9995884276937149 -0.0158533694142859 4.115723062851277E-4 0.0158533694142859 4.115723062851277E-4 0.0158533694142859 0.9995884276937149 -0.0158533694142859
3005.0294847665045 0.9995576078847347 -0.016574531918510944 4.4239211526525454E-4 0.016574531918510944 4.4239211526525454E-4 0.016574531918510944 0.9995576078847347 -0.016574531918510944
3142.6362496850466 0.9995241733905065 -0.017328432377075396 4.7582660949356493E-4 0.017328432377075396 4.7582660949356493E-4 0.017328432377075396 0.9995241733905065 -0.017328432377075396
3286.544324406816 0.9994878951830349 -0.01811653713679734 5.121048169650043E-4 0.01811653713679734 5.121048169650043E-4 0.01811653713679734 0.9994878951830349 -0.01811653713679734
3437.0422594639017 0.999448525754021 -0.018940376392847843 5.514742459790395E-4 0.018940376392847843 5.514742459790395E-4 0.018940376392847843 0.999448525754021 -0.018940376392847843
3594.431818738024 0.9994057976859014 -0.019801547063978017 5.942023140984483E-4 0.019801547063978017 5.942023140984483E-4 0.019801547063978017 0.9994057976859014 -0.019801547063978017
3759.0285845282415 0.9993594220722013 -0.020701715826148485 6.405779277985793E-4 0.020701715826148485 6.405779277985793E-4 0.020701715826148485 0.9993594220722013 -0.020701715826148485
3931.162590326006 0.999309086764724 -0.021642622311775987 6.909132352759716E-4 0.021642622311775987 6.909132352759716E-4 0.021642622311775987 0.999309086764724 -0.021642622311775987
4111.17898256636 0.9992544544219346 -0.02262608248053077 7.455455780654334E-4 0.02262608248053077 7.455455780654334E-4 0.02262608248053077 0.9992544544219346 -0.02262608248053077
4299.438712682125 0.9991951603295927 -0.02365399216572265 8.048396704073578E-4 0.02365399216572265 8.048396704073578E-4 0.02365399216572265 0.9991951603295927 -0.02365399216572265
4496.31926084876 0.9991308099614202 -0.024728330797739263 8.69190038579736E-4 0.024728330797739263 8.69190038579736E-4 0.024728330797739263 0.9991308099614202 -0.024728330797739263
4702.215392871039 0.9990609762444966 -0.025851165302714266 9.390237555032352E-4 0.025851165302714266 9.390237555032352E-4 0.025851165302714266 0.9990609762444966 -0.025851165302714266
4917.539951729213 0.9989851964913332 -0.027024654170622785 0.0010148035086668498 0.027024654170622785 0.0010148035086668498 0.027024654170622785 0.9989851964913332 -0.027024654170622785
5142.724685371758 0.9989029689583746 -0.028251051682390765 0.0010970310416253187 0.028251051682390765 0.0010970310416253187 0.028251051682390765 0.9989029689583746 -0.028251051682390765
5378.221112414543 0.9988137489891796 -0.029532712280492427 0.0011862510108203795 0.029532712280492427 0.0011862510108203795 0.029532712280492427 0.9988137489891796 -0.029532712280492427
5624.501427482224 0.9987169446998583 -0.03087209506207828 0.0012830553001417938 0.03087209506207828 0.0012830553001417938 0.03087209506207828 0.9987169446998583 -0.03087209506207828
5882.059448007167 0.9986119121646082 -0.032271768368158635 0.001388087835391705 0.032271768368158635 0.001388087835391705 0.032271768368158635 0.9986119121646082 -0.032271768368158635
6151.41160438433 0.9984979500603572 -0.03373441443703079 0.0015020499396426659 0.03373441443703079 0.0015020499396426659 0.03373441443703079 0.9984979500603572 -0.03373441443703079
6433.097975467465 0.9983742937315294 -0.03526283408525939 0.0016257062684706157 0.03526283408525939 0.0016257062684706157 0.03526283408525939 0.9983742937315294 -0.03526283408525939
6727.683371482931 0.9982401086386204 -0.036859951375348934 0.001759891361379549 0.036859951375348934 0.001759891361379549 0.036859951375348934 0.9982401086386204 -0.036859951375348934
7035.758466532445 0.9980944831573135 -0.038528818225986756 0.0019055168426865875 0.038528818225986756 0.0019055168426865875 0.038528818225986756 0.9980944831573135 -0.038528818225986756
7357.940982955574 0.9979364206979502 -0.04027261891849127 0.0020635793020497913 0.04027261891849127 0.0020635793020497913 0.04027261891849127 0.9979364206979502 -0.04027261891849127
7694.876929926739 0.9977648311179144 -0.042094674451867126 0.0022351688820856372 0.042094674451867126 0.0022351688820856372 0.042094674451867126 0.9977648311179144 -0.042094674451867126
8047.241898770236 0.9975785214014671 -0.04399844669851129 0.002421478598532943 0.04399844669851129 0.002421478598532943 0.04399844669851129 0.9975785214014671 -0.04399844669851129
8415.742417590522 0.9973761855824707 -0.045987542312860355 0.00262381441752925 0.045987542312860355 0.00262381441752925 0.045987542312860355 0.9973761855824707 -0.045987542312860355
8801.117367933934 0.9971563938849544 -0.048065716345735525 0.0028436061150456937 0.048065716345735525 0.0028436061150456937 0.048065716345735525 0.9971563938849544 -0.048065716345735525
9204.139466322391 0.9969175810544716 -0.05023687551735396 0.0030824189455283283 0.05023687551735396 0.0030824189455283283 0.05023687551735396 0.9969175810544716 -0.05023687551735396
9625.61681362972 0.9966580338496739 -0.05250508110141909 0.0033419661503260568 0.05250508110141909 0.0033419661503260568 0.05250508110141909 0.9966580338496739 -0.05250508110141909
10066.394515407255 0.9963758776585953 -0.054874551370860045 0.0036241223414047122 0.054874551370860045 0.0036241223414047122 0.054874551370860045 0.9963758776585953 -0.054874551370860045
10527.356376407623 0.9960690621981283 -0.05734966355220604 0.003930937801871758 0.05734966355220604 0.003930937801871758 0.05734966355220604 0.9960690621981283 -0.05734966355220604
11009.426672704432 0.9957353462484305 -0.05993495522987486 0.004264653751569405 0.05993495522987486 0.004264653751569405 0.05993495522987486 0.9957353462484305 -0.05993495522987486
